
T2448 000:240 SEGGER J-Link V4.76d Log File (0000ms, 0238ms total)
T2448 000:240 DLL Compiled: Sep 13 2013 16:35:06 (0000ms, 0238ms total)
T2448 000:240 Logging started @ 2015-08-14 23:14 (0001ms, 0239ms total)
T2448 000:241 JLINK_SetWarnOutHandler(...) (0000ms, 0239ms total)
T2448 000:241 JLINK_OpenEx(...)
Firmware: J-Link ARM-OB STM32 compiled Aug 22 2012 19:52:04
Hardware: V7.00
S/N: 20150809
Feature(s): RDI,FlashDL,FlashBP,JFlash,GDBFull  returns O.K. (0018ms, 0257ms total)
T2448 000:259 JLINK_SetErrorOutHandler(...) (0000ms, 0257ms total)
T2448 000:259 JLINK_ExecCommand("ProjectFile = "C:\Users\YuanChenxv\Desktop\Code_103\project\JLinkSettings.ini"", ...)  returns 0x00 (0000ms, 0257ms total)
T2448 000:262 JLINK_ExecCommand("Device = STM32F103VE", ...)
                JLINK_AddMirrorAreaEx(Addr = 0x00000000, Size = 0x00000000) (0000ms, 0000ms total)
              Device "STM32F103VE" selected (512 KB flash, 64 KB RAM).  returns 0x00 (0010ms, 0267ms total)
T2448 000:272 JLINK_ExecCommand("DisableConnectionTimeout", ...)  returns 0x01 (0000ms, 0267ms total)
T2448 000:272 JLINK_GetHardwareVersion()  returns 0x11170 (0000ms, 0267ms total)
T2448 000:272 JLINK_GetDLLVersion()  returns 47604 (0000ms, 0267ms total)
T2448 000:272 JLINK_GetFirmwareString(...) (0000ms, 0267ms total)
T2448 000:277 JLINK_GetDLLVersion()  returns 47604 (0000ms, 0267ms total)
T2448 000:277 JLINK_GetCompileDateTime() (0000ms, 0267ms total)
T2448 000:279 JLINK_GetFirmwareString(...) (0000ms, 0267ms total)
T2448 000:281 JLINK_GetHardwareVersion()  returns 0x11170 (0000ms, 0267ms total)
T2448 000:289 JLINK_TIF_Select(JLINKARM_TIF_SWD)  returns 0x00 (0003ms, 0270ms total)
T2448 000:292 JLINK_SetSpeed(2000) (0000ms, 0270ms total)
T2448 000:292 JLINK_GetId() >0x108 TIF>Found SWD-DP with ID 0x1BA01477 >0x0D TIF> >0x28 TIF> >0x0D TIF> >0x28 TIF> >0x0D TIF> >0x21 TIF> >0x0D TIF> >0x28 TIF> >0x0D TIF> >0x28 TIF> >0x0D TIF> >0x28 TIF> >0x0D TIF> >0x21 TIF> >0x0D TIF> >0x21 TIF> >0x0D TIF> >0x28 TIF> >0x0D TIF> >0x21 TIF> >0x0D TIF> >0x21 TIF> >0x108 TIF>Found SWD-DP with ID 0x1BA01477 >0x0D TIF> >0x21 TIF> >0x0D TIF> >0x28 TIF> >0x0D TIF> >0x28 TIF> >0x0D TIF> >0x21 TIF> >0x0D TIF> >0x28 TIF> >0x0D TIF> >0x21 TIF> >0x0D TIF> >0x21 TIF>
 >0x0D TIF> >0x21 TIF> >0x0D TIF> >0x21 TIF> >0x0D TIF> >0x28 TIF> >0x0D TIF> >0x28 TIF> >0x0D TIF> >0x21 TIF> >0x0D TIF> >0x28 TIF> >0x0D TIF> >0x28 TIF> >0x0D TIF> >0x28 TIF> >0x0D TIF> >0x21 TIF> >0x0D TIF> >0x21 TIF> >0x0D TIF> >0x28 TIF> >0x0D TIF> >0x21 TIF> >0x0D TIF> >0x21 TIF>Found Cortex-M3 r1p1, Little endian. -- CPU_WriteMem(4 bytes @ 0xE0002000) -- CPU_ReadMem(4 bytes @ 0xE000EDF0) -- CPU_ReadMem(4 bytes @ 0xE0002000)FPUnit: 6 code (BP) slots and 2 literal slots
 -- CPU_ReadMem(4 bytes @ 0xE000EDFC) -- CPU_ReadMem(4 bytes @ 0xE0001000) -- CPU_WriteMem(4 bytes @ 0xE0001000) -- CPU_ReadMem(4 bytes @ 0xE00FF010)TPIU fitted. -- CPU_ReadMem(4 bytes @ 0xE00FF014)ETM fitted. -- CPU_ReadMem(4 bytes @ 0xE00FF018) >0x0D TIF> >0x21 TIF>  returns 0x1BA01477 (0057ms, 0327ms total)
T2448 000:349 JLINK_GetDeviceFamily()  returns 3 (0000ms, 0327ms total)
T2448 000:351 JLINK_ReadMem (0xE00FFFF0, 0x0010 Bytes, ...) -- CPU is running -- CPU_ReadMem(16 bytes @ 0xE00FFFF0) -- Data:  0D 00 00 00 10 00 00 00 05 00 00 00 B1 00 00 00  returns 0x00 (0001ms, 0328ms total)
T2448 000:352 JLINK_ReadMem (0xE00FFFD0, 0x0020 Bytes, ...) -- CPU is running -- CPU_ReadMem(32 bytes @ 0xE00FFFD0) -- Data:  00 00 00 00 00 00 00 00 00 00 00 00 00 00 00 00 ...  returns 0x00 (0001ms, 0329ms total)
T2448 000:353 JLINK_ReadMem (0xE00FF000, 0x0018 Bytes, ...) -- CPU is running -- CPU_ReadMem(24 bytes @ 0xE00FF000) -- Data:  03 F0 F0 FF 03 20 F0 FF 03 30 F0 FF 03 10 F0 FF ...  returns 0x00 (0001ms, 0330ms total)
T2448 000:354 JLINK_ReadMemU32(0xE000ED00, 0x0001 Items, ...) -- CPU is running -- CPU_ReadMem(4 bytes @ 0xE000ED00) -- Data:  31 C2 1F 41  returns 0x01 (0000ms, 0330ms total)
T2448 000:355 JLINK_SetResetType(JLINKARM_RESET_TYPE_NORMAL)  returns JLINKARM_RESET_TYPE_NORMAL (0000ms, 0330ms total)
T2448 000:355 JLINK_Reset() -- CPU is running -- CPU_WriteMem(4 bytes @ 0xE000EDF0) -- CPU is running -- CPU_WriteMem(4 bytes @ 0xE000EDFC) >0x35 TIF> -- CPU is running -- CPU_WriteMem(4 bytes @ 0xE000ED0C) -- CPU is running -- CPU_ReadMem(4 bytes @ 0xE000EDF0) -- CPU is running -- CPU_ReadMem(4 bytes @ 0xE000EDF0) -- CPU is running -- CPU_WriteMem(4 bytes @ 0xE000EDF0) -- CPU is running -- CPU_WriteMem(4 bytes @ 0xE000EDFC) -- CPU is running -- CPU_ReadMem(4 bytes @ 0xE000EDF0)
 -- CPU_WriteMem(4 bytes @ 0xE0002000) (0020ms, 0350ms total)
T2448 000:375 JLINK_Halt()  returns 0x00 (0000ms, 0350ms total)
T2448 000:375 JLINK_IsHalted()  returns TRUE (0000ms, 0350ms total)
T2448 000:375 JLINK_ReadMemU32(0xE000EDF0, 0x0001 Items, ...) -- CPU_ReadMem(4 bytes @ 0xE000EDF0) -- Data:  03 00 03 00  returns 0x01 (0001ms, 0351ms total)
T2448 000:376 JLINK_WriteU32(0xE000EDF0, 0xA05F0003) -- CPU_WriteMem(4 bytes @ 0xE000EDF0)  returns 0x00 (0001ms, 0352ms total)
T2448 000:377 JLINK_WriteU32(0xE000EDFC, 0x01000000) -- CPU_WriteMem(4 bytes @ 0xE000EDFC)  returns 0x00 (0001ms, 0353ms total)
T2448 000:384 JLINK_GetHWStatus(...)  returns 0x00 (0001ms, 0354ms total)
T2448 000:391 JLINK_GetNumBPUnits(Type = 0xFFFFFF00)  returns 0x06 (0000ms, 0354ms total)
T2448 000:391 JLINK_GetNumBPUnits(Type = 0xF0)  returns 0x2000 (0000ms, 0354ms total)
T2448 000:391 JLINK_GetNumWPUnits()  returns 0x04 (0000ms, 0354ms total)
T2448 000:395 JLINK_GetSpeed()  returns 0x7D0 (0000ms, 0354ms total)
T2448 000:399 JLINK_ReadMemU32(0xE000E004, 0x0001 Items, ...) -- CPU_ReadMem(4 bytes @ 0xE000E004) -- Data:  01 00 00 00  returns 0x01 (0000ms, 0354ms total)
T2448 000:399 JLINK_ReadMemU32(0xE000E004, 0x0001 Items, ...) -- CPU_ReadMem(4 bytes @ 0xE000E004) -- Data:  01 00 00 00  returns 0x01 (0002ms, 0356ms total)
T2448 000:401 JLINK_WriteMem(0xE0001000, 0x001C Bytes, ...) -- Data:  01 00 00 00 00 00 00 00 00 00 00 00 00 00 00 00 ... -- CPU_WriteMem(28 bytes @ 0xE0001000)  returns 0x1C (0001ms, 0357ms total)
T2448 000:402 JLINK_ReadMem (0xE0001000, 0x001C Bytes, ...) -- CPU_ReadMem(28 bytes @ 0xE0001000) -- Data:  01 00 00 40 00 00 00 00 00 00 00 00 00 00 00 00 ...  returns 0x00 (0001ms, 0358ms total)
T2448 000:403 JLINK_Halt()  returns 0x00 (0000ms, 0358ms total)
T2448 000:403 JLINK_IsHalted()  returns TRUE (0000ms, 0358ms total)
T2448 000:406 JLINK_WriteMem(0x20000000, 0x0164 Bytes, ...) -- Data:  00 BE 0A E0 0D 78 2D 06 68 40 08 24 40 00 00 D3 ... -- CPU_WriteMem(356 bytes @ 0x20000000)  returns 0x164 (0005ms, 0363ms total)
T2448 000:411 JLINK_WriteReg(R0, 0x08000000)  returns 0x00 (0000ms, 0363ms total)
T2448 000:411 JLINK_WriteReg(R1, 0x007A1200)  returns 0x00 (0000ms, 0363ms total)
T2448 000:411 JLINK_WriteReg(R2, 0x00000001)  returns 0x00 (0000ms, 0363ms total)
T2448 000:411 JLINK_WriteReg(R3, 0x00000000)  returns 0x00 (0000ms, 0363ms total)
T2448 000:411 JLINK_WriteReg(R4, 0x00000000)  returns 0x00 (0000ms, 0363ms total)
T2448 000:411 JLINK_WriteReg(R5, 0x00000000)  returns 0x00 (0000ms, 0363ms total)
T2448 000:411 JLINK_WriteReg(R6, 0x00000000)  returns 0x00 (0000ms, 0363ms total)
T2448 000:411 JLINK_WriteReg(R7, 0x00000000)  returns 0x00 (0000ms, 0363ms total)
T2448 000:411 JLINK_WriteReg(R8, 0x00000000)  returns 0x00 (0000ms, 0363ms total)
T2448 000:411 JLINK_WriteReg(R9, 0x20000160)  returns 0x00 (0000ms, 0363ms total)
T2448 000:411 JLINK_WriteReg(R10, 0x00000000)  returns 0x00 (0000ms, 0363ms total)
T2448 000:411 JLINK_WriteReg(R11, 0x00000000)  returns 0x00 (0000ms, 0363ms total)
T2448 000:411 JLINK_WriteReg(R12, 0x00000000)  returns 0x00 (0001ms, 0364ms total)
T2448 000:412 JLINK_WriteReg(R13 (SP), 0x20000800)  returns 0x00 (0000ms, 0364ms total)
T2448 000:412 JLINK_WriteReg(R14, 0x20000001)  returns 0x00 (0000ms, 0364ms total)
T2448 000:412 JLINK_WriteReg(R15 (PC), 0x20000038)  returns 0x00 (0000ms, 0364ms total)
T2448 000:412 JLINK_WriteReg(XPSR, 0x01000000)  returns 0x00 (0000ms, 0364ms total)
T2448 000:412 JLINK_WriteReg(MSP, 0x20000800)  returns 0x00 (0000ms, 0364ms total)
T2448 000:412 JLINK_WriteReg(PSP, 0x20000800)  returns 0x00 (0000ms, 0364ms total)
T2448 000:412 JLINK_WriteReg(CFBP, 0x00000000)  returns 0x00 (0000ms, 0364ms total)
T2448 000:412 JLINK_SetBPEx(Addr = 0x20000000, Type = 0xFFFFFFF2) -- CPU_ReadMem(2 bytes @ 0x20000000)  returns 0x00000001 (0001ms, 0365ms total)
T2448 000:413 JLINK_Go() -- CPU_WriteMem(2 bytes @ 0x20000000) -- CPU_WriteMem(4 bytes @ 0xE0002008) -- CPU_WriteMem(4 bytes @ 0xE000200C) -- CPU_WriteMem(4 bytes @ 0xE0002010) -- CPU_WriteMem(4 bytes @ 0xE0002014) -- CPU_WriteMem(4 bytes @ 0xE0002018) -- CPU_WriteMem(4 bytes @ 0xE000201C) (0007ms, 0372ms total)
T2448 000:420 JLINK_IsHalted() -- CPU_ReadMem(2 bytes @ 0x20000000)  returns TRUE (0004ms, 0376ms total)
T2448 000:424 JLINK_ReadReg(R15 (PC))  returns 0x20000000 (0000ms, 0372ms total)
T2448 000:424 JLINK_ClrBPEx(BPHandle = 0x00000001)  returns 0x00 (0001ms, 0373ms total)
T2448 000:425 JLINK_ReadReg(R0)  returns 0x00000000 (0000ms, 0373ms total)
T2448 000:425 JLINK_WriteReg(R0, 0x08000000)  returns 0x00 (0000ms, 0373ms total)
T2448 000:425 JLINK_WriteReg(R1, 0x007A1200)  returns 0x00 (0000ms, 0373ms total)
T2448 000:425 JLINK_WriteReg(R2, 0x00000001)  returns 0x00 (0000ms, 0373ms total)
T2448 000:425 JLINK_WriteReg(R3, 0x00000000)  returns 0x00 (0000ms, 0373ms total)
T2448 000:425 JLINK_WriteReg(R4, 0x00000000)  returns 0x00 (0000ms, 0373ms total)
T2448 000:425 JLINK_WriteReg(R5, 0x00000000)  returns 0x00 (0000ms, 0373ms total)
T2448 000:425 JLINK_WriteReg(R6, 0x00000000)  returns 0x00 (0000ms, 0373ms total)
T2448 000:425 JLINK_WriteReg(R7, 0x00000000)  returns 0x00 (0000ms, 0373ms total)
T2448 000:425 JLINK_WriteReg(R8, 0x00000000)  returns 0x00 (0000ms, 0373ms total)
T2448 000:425 JLINK_WriteReg(R9, 0x20000160)  returns 0x00 (0000ms, 0373ms total)
T2448 000:425 JLINK_WriteReg(R10, 0x00000000)  returns 0x00 (0000ms, 0373ms total)
T2448 000:425 JLINK_WriteReg(R11, 0x00000000)  returns 0x00 (0000ms, 0373ms total)
T2448 000:425 JLINK_WriteReg(R12, 0x00000000)  returns 0x00 (0000ms, 0373ms total)
T2448 000:425 JLINK_WriteReg(R13 (SP), 0x20000800)  returns 0x00 (0001ms, 0374ms total)
T2448 000:426 JLINK_WriteReg(R14, 0x20000001)  returns 0x00 (0000ms, 0374ms total)
T2448 000:426 JLINK_WriteReg(R15 (PC), 0x2000007C)  returns 0x00 (0000ms, 0374ms total)
T2448 000:426 JLINK_WriteReg(XPSR, 0x01000000)  returns 0x00 (0000ms, 0374ms total)
T2448 000:426 JLINK_WriteReg(MSP, 0x20000800)  returns 0x00 (0000ms, 0374ms total)
T2448 000:426 JLINK_WriteReg(PSP, 0x20000800)  returns 0x00 (0000ms, 0374ms total)
T2448 000:426 JLINK_WriteReg(CFBP, 0x00000000)  returns 0x00 (0000ms, 0374ms total)
T2448 000:426 JLINK_SetBPEx(Addr = 0x20000000, Type = 0xFFFFFFF2)  returns 0x00000002 (0000ms, 0374ms total)
T2448 000:426 JLINK_Go() (0002ms, 0376ms total)
T2448 000:428 JLINK_IsHalted()  returns FALSE (0000ms, 0376ms total)
T2448 000:471 JLINK_IsHalted() -- CPU_ReadMem(2 bytes @ 0x20000000)  returns TRUE (0004ms, 0380ms total)
T2448 000:475 JLINK_ReadReg(R15 (PC))  returns 0x20000000 (0000ms, 0376ms total)
T2448 000:475 JLINK_ClrBPEx(BPHandle = 0x00000002)  returns 0x00 (0000ms, 0376ms total)
T2448 000:475 JLINK_ReadReg(R0)  returns 0x00000000 (0000ms, 0376ms total)
T2448 000:525 JLINK_WriteReg(R0, 0x00000001)  returns 0x00 (0000ms, 0376ms total)
T2448 000:525 JLINK_WriteReg(R1, 0x007A1200)  returns 0x00 (0000ms, 0376ms total)
T2448 000:525 JLINK_WriteReg(R2, 0x00000001)  returns 0x00 (0000ms, 0376ms total)
T2448 000:525 JLINK_WriteReg(R3, 0x00000000)  returns 0x00 (0000ms, 0376ms total)
T2448 000:525 JLINK_WriteReg(R4, 0x00000000)  returns 0x00 (0001ms, 0377ms total)
T2448 000:526 JLINK_WriteReg(R5, 0x00000000)  returns 0x00 (0000ms, 0377ms total)
T2448 000:526 JLINK_WriteReg(R6, 0x00000000)  returns 0x00 (0000ms, 0377ms total)
T2448 000:526 JLINK_WriteReg(R7, 0x00000000)  returns 0x00 (0000ms, 0377ms total)
T2448 000:526 JLINK_WriteReg(R8, 0x00000000)  returns 0x00 (0000ms, 0377ms total)
T2448 000:526 JLINK_WriteReg(R9, 0x20000160)  returns 0x00 (0000ms, 0377ms total)
T2448 000:526 JLINK_WriteReg(R10, 0x00000000)  returns 0x00 (0000ms, 0377ms total)
T2448 000:526 JLINK_WriteReg(R11, 0x00000000)  returns 0x00 (0000ms, 0377ms total)
T2448 000:526 JLINK_WriteReg(R12, 0x00000000)  returns 0x00 (0000ms, 0377ms total)
T2448 000:526 JLINK_WriteReg(R13 (SP), 0x20000800)  returns 0x00 (0000ms, 0377ms total)
T2448 000:526 JLINK_WriteReg(R14, 0x20000001)  returns 0x00 (0000ms, 0377ms total)
T2448 000:526 JLINK_WriteReg(R15 (PC), 0x2000006A)  returns 0x00 (0000ms, 0377ms total)
T2448 000:526 JLINK_WriteReg(XPSR, 0x01000000)  returns 0x00 (0000ms, 0377ms total)
T2448 000:526 JLINK_WriteReg(MSP, 0x20000800)  returns 0x00 (0000ms, 0377ms total)
T2448 000:526 JLINK_WriteReg(PSP, 0x20000800)  returns 0x00 (0000ms, 0377ms total)
T2448 000:526 JLINK_WriteReg(CFBP, 0x00000000)  returns 0x00 (0000ms, 0377ms total)
T2448 000:526 JLINK_SetBPEx(Addr = 0x20000000, Type = 0xFFFFFFF2)  returns 0x00000003 (0000ms, 0377ms total)
T2448 000:526 JLINK_Go() (0003ms, 0380ms total)
T2448 000:529 JLINK_IsHalted() -- CPU_ReadMem(2 bytes @ 0x20000000)  returns TRUE (0005ms, 0385ms total)
T2448 000:534 JLINK_ReadReg(R15 (PC))  returns 0x20000000 (0000ms, 0380ms total)
T2448 000:534 JLINK_ClrBPEx(BPHandle = 0x00000003)  returns 0x00 (0000ms, 0380ms total)
T2448 000:534 JLINK_ReadReg(R0)  returns 0x00000000 (0000ms, 0380ms total)
T2448 000:538 JLINK_WriteMem(0x20000000, 0x0164 Bytes, ...) -- Data:  00 BE 0A E0 0D 78 2D 06 68 40 08 24 40 00 00 D3 ... -- CPU_WriteMem(356 bytes @ 0x20000000)  returns 0x164 (0005ms, 0385ms total)
T2448 000:544 JLINK_WriteReg(R0, 0x08000000)  returns 0x00 (0000ms, 0385ms total)
T2448 000:544 JLINK_WriteReg(R1, 0x007A1200)  returns 0x00 (0000ms, 0385ms total)
T2448 000:544 JLINK_WriteReg(R2, 0x00000002)  returns 0x00 (0000ms, 0385ms total)
T2448 000:544 JLINK_WriteReg(R3, 0x00000000)  returns 0x00 (0000ms, 0385ms total)
T2448 000:544 JLINK_WriteReg(R4, 0x00000000)  returns 0x00 (0000ms, 0385ms total)
T2448 000:544 JLINK_WriteReg(R5, 0x00000000)  returns 0x00 (0000ms, 0385ms total)
T2448 000:544 JLINK_WriteReg(R6, 0x00000000)  returns 0x00 (0000ms, 0385ms total)
T2448 000:544 JLINK_WriteReg(R7, 0x00000000)  returns 0x00 (0000ms, 0385ms total)
T2448 000:544 JLINK_WriteReg(R8, 0x00000000)  returns 0x00 (0000ms, 0385ms total)
T2448 000:544 JLINK_WriteReg(R9, 0x20000160)  returns 0x00 (0000ms, 0385ms total)
T2448 000:544 JLINK_WriteReg(R10, 0x00000000)  returns 0x00 (0000ms, 0385ms total)
T2448 000:544 JLINK_WriteReg(R11, 0x00000000)  returns 0x00 (0000ms, 0385ms total)
T2448 000:544 JLINK_WriteReg(R12, 0x00000000)  returns 0x00 (0000ms, 0385ms total)
T2448 000:544 JLINK_WriteReg(R13 (SP), 0x20000800)  returns 0x00 (0000ms, 0385ms total)
T2448 000:544 JLINK_WriteReg(R14, 0x20000001)  returns 0x00 (0000ms, 0385ms total)
T2448 000:544 JLINK_WriteReg(R15 (PC), 0x20000038)  returns 0x00 (0000ms, 0385ms total)
T2448 000:544 JLINK_WriteReg(XPSR, 0x01000000)  returns 0x00 (0000ms, 0385ms total)
T2448 000:544 JLINK_WriteReg(MSP, 0x20000800)  returns 0x00 (0000ms, 0385ms total)
T2448 000:544 JLINK_WriteReg(PSP, 0x20000800)  returns 0x00 (0000ms, 0385ms total)
T2448 000:544 JLINK_WriteReg(CFBP, 0x00000000)  returns 0x00 (0000ms, 0385ms total)
T2448 000:544 JLINK_SetBPEx(Addr = 0x20000000, Type = 0xFFFFFFF2) -- CPU_ReadMem(2 bytes @ 0x20000000)  returns 0x00000004 (0001ms, 0386ms total)
T2448 000:545 JLINK_Go() -- CPU_WriteMem(2 bytes @ 0x20000000) (0004ms, 0390ms total)
T2448 000:549 JLINK_IsHalted() -- CPU_ReadMem(2 bytes @ 0x20000000)  returns TRUE (0005ms, 0395ms total)
T2448 000:554 JLINK_ReadReg(R15 (PC))  returns 0x20000000 (0000ms, 0390ms total)
T2448 000:554 JLINK_ClrBPEx(BPHandle = 0x00000004)  returns 0x00 (0000ms, 0390ms total)
T2448 000:554 JLINK_ReadReg(R0)  returns 0x00000000 (0000ms, 0390ms total)
T2448 000:554 JLINK_WriteMem(0x20000164, 0x0400 Bytes, ...) -- Data:  98 09 00 20 ED 01 00 08 F5 01 00 08 F7 01 00 08 ... -- CPU_WriteMem(1024 bytes @ 0x20000164)  returns 0x400 (0013ms, 0403ms total)
T2448 000:567 JLINK_WriteReg(R0, 0x08000000)  returns 0x00 (0000ms, 0403ms total)
T2448 000:567 JLINK_WriteReg(R1, 0x00000400)  returns 0x00 (0000ms, 0403ms total)
T2448 000:567 JLINK_WriteReg(R2, 0x20000164)  returns 0x00 (0000ms, 0403ms total)
T2448 000:567 JLINK_WriteReg(R3, 0x00000000)  returns 0x00 (0000ms, 0403ms total)
T2448 000:567 JLINK_WriteReg(R4, 0x00000000)  returns 0x00 (0000ms, 0403ms total)
T2448 000:567 JLINK_WriteReg(R5, 0x00000000)  returns 0x00 (0001ms, 0404ms total)
T2448 000:568 JLINK_WriteReg(R6, 0x00000000)  returns 0x00 (0000ms, 0404ms total)
T2448 000:568 JLINK_WriteReg(R7, 0x00000000)  returns 0x00 (0000ms, 0404ms total)
T2448 000:568 JLINK_WriteReg(R8, 0x00000000)  returns 0x00 (0000ms, 0404ms total)
T2448 000:568 JLINK_WriteReg(R9, 0x20000160)  returns 0x00 (0000ms, 0404ms total)
T2448 000:568 JLINK_WriteReg(R10, 0x00000000)  returns 0x00 (0000ms, 0404ms total)
T2448 000:568 JLINK_WriteReg(R11, 0x00000000)  returns 0x00 (0000ms, 0404ms total)
T2448 000:568 JLINK_WriteReg(R12, 0x00000000)  returns 0x00 (0000ms, 0404ms total)
T2448 000:568 JLINK_WriteReg(R13 (SP), 0x20000800)  returns 0x00 (0000ms, 0404ms total)
T2448 000:568 JLINK_WriteReg(R14, 0x20000001)  returns 0x00 (0000ms, 0404ms total)
T2448 000:568 JLINK_WriteReg(R15 (PC), 0x200000F4)  returns 0x00 (0000ms, 0404ms total)
T2448 000:568 JLINK_WriteReg(XPSR, 0x01000000)  returns 0x00 (0000ms, 0404ms total)
T2448 000:568 JLINK_WriteReg(MSP, 0x20000800)  returns 0x00 (0000ms, 0404ms total)
T2448 000:568 JLINK_WriteReg(PSP, 0x20000800)  returns 0x00 (0000ms, 0404ms total)
T2448 000:568 JLINK_WriteReg(CFBP, 0x00000000)  returns 0x00 (0000ms, 0404ms total)
T2448 000:568 JLINK_SetBPEx(Addr = 0x20000000, Type = 0xFFFFFFF2)  returns 0x00000005 (0000ms, 0404ms total)
T2448 000:568 JLINK_Go() (0003ms, 0407ms total)
T2448 000:571 JLINK_IsHalted()  returns FALSE (0001ms, 0408ms total)
T2448 000:594 JLINK_IsHalted()  returns FALSE (0001ms, 0408ms total)
T2448 000:596 JLINK_IsHalted()  returns FALSE (0000ms, 0407ms total)
T2448 000:598 JLINK_IsHalted()  returns FALSE (0001ms, 0408ms total)
T2448 000:600 JLINK_IsHalted()  returns FALSE (0001ms, 0408ms total)
T2448 000:602 JLINK_IsHalted() -- CPU_ReadMem(2 bytes @ 0x20000000)  returns TRUE (0005ms, 0412ms total)
T2448 000:607 JLINK_ReadReg(R15 (PC))  returns 0x20000000 (0000ms, 0407ms total)
T2448 000:607 JLINK_ClrBPEx(BPHandle = 0x00000005)  returns 0x00 (0000ms, 0407ms total)
T2448 000:607 JLINK_ReadReg(R0)  returns 0x00000000 (0000ms, 0407ms total)
T2448 000:607 JLINK_WriteMem(0x20000164, 0x0400 Bytes, ...) -- Data:  00 09 3D 00 04 00 00 20 08 B5 01 21 40 20 02 F0 ... -- CPU_WriteMem(1024 bytes @ 0x20000164)  returns 0x400 (0013ms, 0420ms total)
T2448 000:620 JLINK_WriteReg(R0, 0x08000400)  returns 0x00 (0000ms, 0420ms total)
T2448 000:620 JLINK_WriteReg(R1, 0x00000400)  returns 0x00 (0000ms, 0420ms total)
T2448 000:620 JLINK_WriteReg(R2, 0x20000164)  returns 0x00 (0000ms, 0420ms total)
T2448 000:620 JLINK_WriteReg(R3, 0x00000000)  returns 0x00 (0000ms, 0420ms total)
T2448 000:620 JLINK_WriteReg(R4, 0x00000000)  returns 0x00 (0000ms, 0420ms total)
T2448 000:620 JLINK_WriteReg(R5, 0x00000000)  returns 0x00 (0000ms, 0420ms total)
T2448 000:620 JLINK_WriteReg(R6, 0x00000000)  returns 0x00 (0001ms, 0421ms total)
T2448 000:621 JLINK_WriteReg(R7, 0x00000000)  returns 0x00 (0000ms, 0421ms total)
T2448 000:621 JLINK_WriteReg(R8, 0x00000000)  returns 0x00 (0000ms, 0421ms total)
T2448 000:621 JLINK_WriteReg(R9, 0x20000160)  returns 0x00 (0000ms, 0421ms total)
T2448 000:621 JLINK_WriteReg(R10, 0x00000000)  returns 0x00 (0000ms, 0421ms total)
T2448 000:621 JLINK_WriteReg(R11, 0x00000000)  returns 0x00 (0000ms, 0421ms total)
T2448 000:621 JLINK_WriteReg(R12, 0x00000000)  returns 0x00 (0000ms, 0421ms total)
T2448 000:621 JLINK_WriteReg(R13 (SP), 0x20000800)  returns 0x00 (0000ms, 0421ms total)
T2448 000:621 JLINK_WriteReg(R14, 0x20000001)  returns 0x00 (0000ms, 0421ms total)
T2448 000:621 JLINK_WriteReg(R15 (PC), 0x200000F4)  returns 0x00 (0000ms, 0421ms total)
T2448 000:621 JLINK_WriteReg(XPSR, 0x01000000)  returns 0x00 (0000ms, 0421ms total)
T2448 000:621 JLINK_WriteReg(MSP, 0x20000800)  returns 0x00 (0000ms, 0421ms total)
T2448 000:621 JLINK_WriteReg(PSP, 0x20000800)  returns 0x00 (0000ms, 0421ms total)
T2448 000:621 JLINK_WriteReg(CFBP, 0x00000000)  returns 0x00 (0000ms, 0421ms total)
T2448 000:621 JLINK_SetBPEx(Addr = 0x20000000, Type = 0xFFFFFFF2)  returns 0x00000006 (0000ms, 0421ms total)
T2448 000:621 JLINK_Go() (0003ms, 0424ms total)
T2448 000:624 JLINK_IsHalted()  returns FALSE (0001ms, 0425ms total)
T2448 000:628 JLINK_IsHalted()  returns FALSE (0000ms, 0424ms total)
T2448 000:630 JLINK_IsHalted()  returns FALSE (0000ms, 0424ms total)
T2448 000:632 JLINK_IsHalted()  returns FALSE (0000ms, 0424ms total)
T2448 000:634 JLINK_IsHalted()  returns FALSE (0000ms, 0424ms total)
T2448 000:635 JLINK_IsHalted()  returns FALSE (0000ms, 0424ms total)
T2448 000:637 JLINK_IsHalted()  returns FALSE (0000ms, 0424ms total)
T2448 000:641 JLINK_IsHalted()  returns FALSE (0000ms, 0424ms total)
T2448 000:643 JLINK_IsHalted()  returns FALSE (0000ms, 0424ms total)
T2448 000:645 JLINK_IsHalted()  returns FALSE (0001ms, 0425ms total)
T2448 000:647 JLINK_IsHalted()  returns FALSE (0001ms, 0425ms total)
T2448 000:649 JLINK_IsHalted()  returns FALSE (0000ms, 0424ms total)
T2448 000:650 JLINK_IsHalted()  returns FALSE (0000ms, 0424ms total)
T2448 000:651 JLINK_IsHalted()  returns FALSE (0001ms, 0425ms total)
T2448 000:653 JLINK_IsHalted()  returns FALSE (0000ms, 0424ms total)
T2448 000:654 JLINK_IsHalted()  returns FALSE (0000ms, 0424ms total)
T2448 000:665 JLINK_IsHalted() -- CPU_ReadMem(2 bytes @ 0x20000000)  returns TRUE (0004ms, 0428ms total)
T2448 000:669 JLINK_ReadReg(R15 (PC))  returns 0x20000000 (0001ms, 0425ms total)
T2448 000:670 JLINK_ClrBPEx(BPHandle = 0x00000006)  returns 0x00 (0000ms, 0425ms total)
T2448 000:670 JLINK_ReadReg(R0)  returns 0x00000000 (0000ms, 0425ms total)
T2448 000:670 JLINK_WriteMem(0x20000164, 0x0400 Bytes, ...) -- Data:  08 60 CC 49 08 60 15 E0 C7 49 48 68 C8 49 09 68 ... -- CPU_WriteMem(1024 bytes @ 0x20000164)  returns 0x400 (0013ms, 0438ms total)
T2448 000:683 JLINK_WriteReg(R0, 0x08000800)  returns 0x00 (0000ms, 0438ms total)
T2448 000:683 JLINK_WriteReg(R1, 0x00000400)  returns 0x00 (0000ms, 0438ms total)
T2448 000:683 JLINK_WriteReg(R2, 0x20000164)  returns 0x00 (0000ms, 0438ms total)
T2448 000:683 JLINK_WriteReg(R3, 0x00000000)  returns 0x00 (0000ms, 0438ms total)
T2448 000:683 JLINK_WriteReg(R4, 0x00000000)  returns 0x00 (0000ms, 0438ms total)
T2448 000:683 JLINK_WriteReg(R5, 0x00000000)  returns 0x00 (0000ms, 0438ms total)
T2448 000:683 JLINK_WriteReg(R6, 0x00000000)  returns 0x00 (0000ms, 0438ms total)
T2448 000:683 JLINK_WriteReg(R7, 0x00000000)  returns 0x00 (0000ms, 0438ms total)
T2448 000:683 JLINK_WriteReg(R8, 0x00000000)  returns 0x00 (0000ms, 0438ms total)
T2448 000:683 JLINK_WriteReg(R9, 0x20000160)  returns 0x00 (0000ms, 0438ms total)
T2448 000:683 JLINK_WriteReg(R10, 0x00000000)  returns 0x00 (0001ms, 0439ms total)
T2448 000:684 JLINK_WriteReg(R11, 0x00000000)  returns 0x00 (0000ms, 0439ms total)
T2448 000:684 JLINK_WriteReg(R12, 0x00000000)  returns 0x00 (0000ms, 0439ms total)
T2448 000:684 JLINK_WriteReg(R13 (SP), 0x20000800)  returns 0x00 (0000ms, 0439ms total)
T2448 000:684 JLINK_WriteReg(R14, 0x20000001)  returns 0x00 (0000ms, 0439ms total)
T2448 000:684 JLINK_WriteReg(R15 (PC), 0x200000F4)  returns 0x00 (0000ms, 0439ms total)
T2448 000:684 JLINK_WriteReg(XPSR, 0x01000000)  returns 0x00 (0000ms, 0439ms total)
T2448 000:684 JLINK_WriteReg(MSP, 0x20000800)  returns 0x00 (0000ms, 0439ms total)
T2448 000:684 JLINK_WriteReg(PSP, 0x20000800)  returns 0x00 (0000ms, 0439ms total)
T2448 000:684 JLINK_WriteReg(CFBP, 0x00000000)  returns 0x00 (0000ms, 0439ms total)
T2448 000:684 JLINK_SetBPEx(Addr = 0x20000000, Type = 0xFFFFFFF2)  returns 0x00000007 (0000ms, 0439ms total)
T2448 000:684 JLINK_Go() (0002ms, 0441ms total)
T2448 000:686 JLINK_IsHalted()  returns FALSE (0001ms, 0442ms total)
T2448 000:690 JLINK_IsHalted()  returns FALSE (0000ms, 0441ms total)
T2448 000:692 JLINK_IsHalted()  returns FALSE (0000ms, 0441ms total)
T2448 000:694 JLINK_IsHalted()  returns FALSE (0000ms, 0441ms total)
T2448 000:695 JLINK_IsHalted()  returns FALSE (0000ms, 0441ms total)
T2448 000:696 JLINK_IsHalted()  returns FALSE (0000ms, 0441ms total)
T2448 000:698 JLINK_IsHalted()  returns FALSE (0000ms, 0441ms total)
T2448 000:700 JLINK_IsHalted()  returns FALSE (0001ms, 0442ms total)
T2448 000:702 JLINK_IsHalted()  returns FALSE (0001ms, 0442ms total)
T2448 000:704 JLINK_IsHalted()  returns FALSE (0000ms, 0441ms total)
T2448 000:705 JLINK_IsHalted()  returns FALSE (0000ms, 0441ms total)
T2448 000:707 JLINK_IsHalted()  returns FALSE (0001ms, 0442ms total)
T2448 000:709 JLINK_IsHalted()  returns FALSE (0000ms, 0441ms total)
T2448 000:710 JLINK_IsHalted()  returns FALSE (0000ms, 0441ms total)
T2448 000:711 JLINK_IsHalted()  returns FALSE (0001ms, 0442ms total)
T2448 000:713 JLINK_IsHalted()  returns FALSE (0000ms, 0441ms total)
T2448 000:717 JLINK_IsHalted() -- CPU_ReadMem(2 bytes @ 0x20000000)  returns TRUE (0005ms, 0446ms total)
T2448 000:722 JLINK_ReadReg(R15 (PC))  returns 0x20000000 (0000ms, 0441ms total)
T2448 000:722 JLINK_ClrBPEx(BPHandle = 0x00000007)  returns 0x00 (0000ms, 0441ms total)
T2448 000:722 JLINK_ReadReg(R0)  returns 0x00000000 (0000ms, 0441ms total)
T2448 000:723 JLINK_WriteMem(0x20000164, 0x0400 Bytes, ...) -- Data:  29 46 D7 48 06 F0 12 FD 07 46 39 46 03 20 FF F7 ... -- CPU_WriteMem(1024 bytes @ 0x20000164)  returns 0x400 (0012ms, 0453ms total)
T2448 000:735 JLINK_WriteReg(R0, 0x08000C00)  returns 0x00 (0000ms, 0453ms total)
T2448 000:735 JLINK_WriteReg(R1, 0x00000400)  returns 0x00 (0000ms, 0453ms total)
T2448 000:735 JLINK_WriteReg(R2, 0x20000164)  returns 0x00 (0001ms, 0454ms total)
T2448 000:736 JLINK_WriteReg(R3, 0x00000000)  returns 0x00 (0000ms, 0454ms total)
T2448 000:736 JLINK_WriteReg(R4, 0x00000000)  returns 0x00 (0000ms, 0454ms total)
T2448 000:736 JLINK_WriteReg(R5, 0x00000000)  returns 0x00 (0000ms, 0454ms total)
T2448 000:736 JLINK_WriteReg(R6, 0x00000000)  returns 0x00 (0000ms, 0454ms total)
T2448 000:736 JLINK_WriteReg(R7, 0x00000000)  returns 0x00 (0000ms, 0454ms total)
T2448 000:736 JLINK_WriteReg(R8, 0x00000000)  returns 0x00 (0000ms, 0454ms total)
T2448 000:736 JLINK_WriteReg(R9, 0x20000160)  returns 0x00 (0000ms, 0454ms total)
T2448 000:736 JLINK_WriteReg(R10, 0x00000000)  returns 0x00 (0000ms, 0454ms total)
T2448 000:736 JLINK_WriteReg(R11, 0x00000000)  returns 0x00 (0000ms, 0454ms total)
T2448 000:736 JLINK_WriteReg(R12, 0x00000000)  returns 0x00 (0000ms, 0454ms total)
T2448 000:736 JLINK_WriteReg(R13 (SP), 0x20000800)  returns 0x00 (0000ms, 0454ms total)
T2448 000:736 JLINK_WriteReg(R14, 0x20000001)  returns 0x00 (0000ms, 0454ms total)
T2448 000:736 JLINK_WriteReg(R15 (PC), 0x200000F4)  returns 0x00 (0000ms, 0454ms total)
T2448 000:736 JLINK_WriteReg(XPSR, 0x01000000)  returns 0x00 (0000ms, 0454ms total)
T2448 000:736 JLINK_WriteReg(MSP, 0x20000800)  returns 0x00 (0000ms, 0454ms total)
T2448 000:736 JLINK_WriteReg(PSP, 0x20000800)  returns 0x00 (0000ms, 0454ms total)
T2448 000:736 JLINK_WriteReg(CFBP, 0x00000000)  returns 0x00 (0000ms, 0454ms total)
T2448 000:736 JLINK_SetBPEx(Addr = 0x20000000, Type = 0xFFFFFFF2)  returns 0x00000008 (0000ms, 0454ms total)
T2448 000:736 JLINK_Go() (0003ms, 0457ms total)
T2448 000:739 JLINK_IsHalted()  returns FALSE (0001ms, 0458ms total)
T2448 000:743 JLINK_IsHalted()  returns FALSE (0001ms, 0458ms total)
T2448 000:745 JLINK_IsHalted()  returns FALSE (0000ms, 0457ms total)
T2448 000:746 JLINK_IsHalted()  returns FALSE (0000ms, 0457ms total)
T2448 000:749 JLINK_IsHalted()  returns FALSE (0000ms, 0457ms total)
T2448 000:750 JLINK_IsHalted()  returns FALSE (0000ms, 0457ms total)
T2448 000:751 JLINK_IsHalted()  returns FALSE (0000ms, 0457ms total)
T2448 000:753 JLINK_IsHalted()  returns FALSE (0000ms, 0457ms total)
T2448 000:754 JLINK_IsHalted()  returns FALSE (0001ms, 0458ms total)
T2448 000:756 JLINK_IsHalted()  returns FALSE (0000ms, 0457ms total)
T2448 000:757 JLINK_IsHalted()  returns FALSE (0000ms, 0457ms total)
T2448 000:758 JLINK_IsHalted()  returns FALSE (0000ms, 0457ms total)
T2448 000:760 JLINK_IsHalted()  returns FALSE (0000ms, 0457ms total)
T2448 000:761 JLINK_IsHalted()  returns FALSE (0001ms, 0458ms total)
T2448 000:773 JLINK_IsHalted() -- CPU_ReadMem(2 bytes @ 0x20000000)  returns TRUE (0004ms, 0461ms total)
T2448 000:777 JLINK_ReadReg(R15 (PC))  returns 0x20000000 (0000ms, 0457ms total)
T2448 000:777 JLINK_ClrBPEx(BPHandle = 0x00000008)  returns 0x00 (0000ms, 0457ms total)
T2448 000:777 JLINK_ReadReg(R0)  returns 0x00000000 (0000ms, 0457ms total)
T2448 000:778 JLINK_WriteMem(0x20000164, 0x0400 Bytes, ...) -- Data:  AA FC 20 46 06 F0 02 F9 05 46 05 F0 C3 FA B8 E0 ... -- CPU_WriteMem(1024 bytes @ 0x20000164)  returns 0x400 (0013ms, 0470ms total)
T2448 000:791 JLINK_WriteReg(R0, 0x08001000)  returns 0x00 (0000ms, 0470ms total)
T2448 000:791 JLINK_WriteReg(R1, 0x00000400)  returns 0x00 (0000ms, 0470ms total)
T2448 000:791 JLINK_WriteReg(R2, 0x20000164)  returns 0x00 (0000ms, 0470ms total)
T2448 000:791 JLINK_WriteReg(R3, 0x00000000)  returns 0x00 (0000ms, 0470ms total)
T2448 000:791 JLINK_WriteReg(R4, 0x00000000)  returns 0x00 (0000ms, 0470ms total)
T2448 000:791 JLINK_WriteReg(R5, 0x00000000)  returns 0x00 (0000ms, 0470ms total)
T2448 000:791 JLINK_WriteReg(R6, 0x00000000)  returns 0x00 (0000ms, 0470ms total)
T2448 000:791 JLINK_WriteReg(R7, 0x00000000)  returns 0x00 (0000ms, 0470ms total)
T2448 000:791 JLINK_WriteReg(R8, 0x00000000)  returns 0x00 (0000ms, 0470ms total)
T2448 000:791 JLINK_WriteReg(R9, 0x20000160)  returns 0x00 (0000ms, 0470ms total)
T2448 000:791 JLINK_WriteReg(R10, 0x00000000)  returns 0x00 (0000ms, 0470ms total)
T2448 000:791 JLINK_WriteReg(R11, 0x00000000)  returns 0x00 (0000ms, 0470ms total)
T2448 000:791 JLINK_WriteReg(R12, 0x00000000)  returns 0x00 (0000ms, 0470ms total)
T2448 000:791 JLINK_WriteReg(R13 (SP), 0x20000800)  returns 0x00 (0000ms, 0470ms total)
T2448 000:791 JLINK_WriteReg(R14, 0x20000001)  returns 0x00 (0000ms, 0470ms total)
T2448 000:791 JLINK_WriteReg(R15 (PC), 0x200000F4)  returns 0x00 (0000ms, 0470ms total)
T2448 000:791 JLINK_WriteReg(XPSR, 0x01000000)  returns 0x00 (0000ms, 0470ms total)
T2448 000:791 JLINK_WriteReg(MSP, 0x20000800)  returns 0x00 (0000ms, 0470ms total)
T2448 000:791 JLINK_WriteReg(PSP, 0x20000800)  returns 0x00 (0000ms, 0470ms total)
T2448 000:791 JLINK_WriteReg(CFBP, 0x00000000)  returns 0x00 (0001ms, 0471ms total)
T2448 000:792 JLINK_SetBPEx(Addr = 0x20000000, Type = 0xFFFFFFF2)  returns 0x00000009 (0000ms, 0471ms total)
T2448 000:792 JLINK_Go() (0002ms, 0473ms total)
T2448 000:794 JLINK_IsHalted()  returns FALSE (0001ms, 0474ms total)
T2448 000:796 JLINK_IsHalted()  returns FALSE (0000ms, 0473ms total)
T2448 000:797 JLINK_IsHalted()  returns FALSE (0000ms, 0473ms total)
T2448 000:798 JLINK_IsHalted()  returns FALSE (0000ms, 0473ms total)
T2448 000:799 JLINK_IsHalted()  returns FALSE (0000ms, 0473ms total)
T2448 000:800 JLINK_IsHalted()  returns FALSE (0001ms, 0474ms total)
T2448 000:802 JLINK_IsHalted()  returns FALSE (0000ms, 0473ms total)
T2448 000:803 JLINK_IsHalted()  returns FALSE (0000ms, 0473ms total)
T2448 000:804 JLINK_IsHalted()  returns FALSE (0000ms, 0473ms total)
T2448 000:805 JLINK_IsHalted()  returns FALSE (0000ms, 0473ms total)
T2448 000:806 JLINK_IsHalted()  returns FALSE (0000ms, 0473ms total)
T2448 000:807 JLINK_IsHalted()  returns FALSE (0000ms, 0473ms total)
T2448 000:808 JLINK_IsHalted()  returns FALSE (0000ms, 0473ms total)
T2448 000:809 JLINK_IsHalted()  returns FALSE (0001ms, 0474ms total)
T2448 000:811 JLINK_IsHalted()  returns FALSE (0000ms, 0473ms total)
T2448 000:812 JLINK_IsHalted()  returns FALSE (0000ms, 0473ms total)
T2448 000:814 JLINK_IsHalted()  returns FALSE (0000ms, 0473ms total)
T2448 000:815 JLINK_IsHalted()  returns FALSE (0000ms, 0473ms total)
T2448 000:816 JLINK_IsHalted()  returns FALSE (0000ms, 0473ms total)
T2448 000:817 JLINK_IsHalted()  returns FALSE (0000ms, 0473ms total)
T2448 000:819 JLINK_IsHalted()  returns FALSE (0000ms, 0473ms total)
T2448 000:820 JLINK_IsHalted()  returns FALSE (0000ms, 0473ms total)
T2448 000:821 JLINK_IsHalted()  returns FALSE (0000ms, 0473ms total)
T2448 000:823 JLINK_IsHalted()  returns FALSE (0000ms, 0473ms total)
T2448 000:824 JLINK_IsHalted()  returns FALSE (0000ms, 0473ms total)
T2448 000:827 JLINK_IsHalted() -- CPU_ReadMem(2 bytes @ 0x20000000)  returns TRUE (0004ms, 0477ms total)
T2448 000:831 JLINK_ReadReg(R15 (PC))  returns 0x20000000 (0000ms, 0473ms total)
T2448 000:831 JLINK_ClrBPEx(BPHandle = 0x00000009)  returns 0x00 (0000ms, 0473ms total)
T2448 000:831 JLINK_ReadReg(R0)  returns 0x00000000 (0001ms, 0474ms total)
T2448 000:832 JLINK_WriteMem(0x20000164, 0x0400 Bytes, ...) -- Data:  C4 49 48 68 4F F0 40 41 06 F0 DC F8 2B D2 C1 49 ... -- CPU_WriteMem(1024 bytes @ 0x20000164)  returns 0x400 (0013ms, 0487ms total)
T2448 000:845 JLINK_WriteReg(R0, 0x08001400)  returns 0x00 (0000ms, 0487ms total)
T2448 000:845 JLINK_WriteReg(R1, 0x00000400)  returns 0x00 (0000ms, 0487ms total)
T2448 000:845 JLINK_WriteReg(R2, 0x20000164)  returns 0x00 (0000ms, 0487ms total)
T2448 000:845 JLINK_WriteReg(R3, 0x00000000)  returns 0x00 (0000ms, 0487ms total)
T2448 000:845 JLINK_WriteReg(R4, 0x00000000)  returns 0x00 (0000ms, 0487ms total)
T2448 000:845 JLINK_WriteReg(R5, 0x00000000)  returns 0x00 (0000ms, 0487ms total)
T2448 000:845 JLINK_WriteReg(R6, 0x00000000)  returns 0x00 (0000ms, 0487ms total)
T2448 000:845 JLINK_WriteReg(R7, 0x00000000)  returns 0x00 (0000ms, 0487ms total)
T2448 000:845 JLINK_WriteReg(R8, 0x00000000)  returns 0x00 (0000ms, 0487ms total)
T2448 000:845 JLINK_WriteReg(R9, 0x20000160)  returns 0x00 (0000ms, 0487ms total)
T2448 000:845 JLINK_WriteReg(R10, 0x00000000)  returns 0x00 (0000ms, 0487ms total)
T2448 000:845 JLINK_WriteReg(R11, 0x00000000)  returns 0x00 (0000ms, 0487ms total)
T2448 000:845 JLINK_WriteReg(R12, 0x00000000)  returns 0x00 (0000ms, 0487ms total)
T2448 000:845 JLINK_WriteReg(R13 (SP), 0x20000800)  returns 0x00 (0000ms, 0487ms total)
T2448 000:845 JLINK_WriteReg(R14, 0x20000001)  returns 0x00 (0000ms, 0487ms total)
T2448 000:845 JLINK_WriteReg(R15 (PC), 0x200000F4)  returns 0x00 (0000ms, 0487ms total)
T2448 000:845 JLINK_WriteReg(XPSR, 0x01000000)  returns 0x00 (0000ms, 0487ms total)
T2448 000:845 JLINK_WriteReg(MSP, 0x20000800)  returns 0x00 (0000ms, 0487ms total)
T2448 000:845 JLINK_WriteReg(PSP, 0x20000800)  returns 0x00 (0001ms, 0488ms total)
T2448 000:846 JLINK_WriteReg(CFBP, 0x00000000)  returns 0x00 (0000ms, 0488ms total)
T2448 000:846 JLINK_SetBPEx(Addr = 0x20000000, Type = 0xFFFFFFF2)  returns 0x0000000A (0000ms, 0488ms total)
T2448 000:846 JLINK_Go() (0002ms, 0490ms total)
T2448 000:848 JLINK_IsHalted()  returns FALSE (0001ms, 0491ms total)
T2448 000:850 JLINK_IsHalted()  returns FALSE (0001ms, 0491ms total)
T2448 000:852 JLINK_IsHalted()  returns FALSE (0000ms, 0490ms total)
T2448 000:854 JLINK_IsHalted()  returns FALSE (0000ms, 0490ms total)
T2448 000:857 JLINK_IsHalted()  returns FALSE (0000ms, 0490ms total)
T2448 000:858 JLINK_IsHalted()  returns FALSE (0001ms, 0491ms total)
T2448 000:860 JLINK_IsHalted()  returns FALSE (0000ms, 0490ms total)
T2448 000:862 JLINK_IsHalted()  returns FALSE (0001ms, 0491ms total)
T2448 000:864 JLINK_IsHalted()  returns FALSE (0000ms, 0490ms total)
T2448 000:865 JLINK_IsHalted()  returns FALSE (0001ms, 0491ms total)
T2448 000:867 JLINK_IsHalted()  returns FALSE (0001ms, 0491ms total)
T2448 000:869 JLINK_IsHalted()  returns FALSE (0000ms, 0490ms total)
T2448 000:870 JLINK_IsHalted()  returns FALSE (0001ms, 0491ms total)
T2448 000:872 JLINK_IsHalted()  returns FALSE (0000ms, 0490ms total)
T2448 000:873 JLINK_IsHalted()  returns FALSE (0000ms, 0490ms total)
T2448 000:874 JLINK_IsHalted()  returns FALSE (0000ms, 0490ms total)
T2448 000:885 JLINK_IsHalted() -- CPU_ReadMem(2 bytes @ 0x20000000)  returns TRUE (0004ms, 0494ms total)
T2448 000:889 JLINK_ReadReg(R15 (PC))  returns 0x20000000 (0001ms, 0491ms total)
T2448 000:890 JLINK_ClrBPEx(BPHandle = 0x0000000A)  returns 0x00 (0000ms, 0491ms total)
T2448 000:890 JLINK_ReadReg(R0)  returns 0x00000000 (0000ms, 0491ms total)
T2448 000:890 JLINK_WriteMem(0x20000164, 0x0400 Bytes, ...) -- Data:  00 28 F9 D0 21 78 14 48 02 F0 80 FE 64 1C 20 78 ... -- CPU_WriteMem(1024 bytes @ 0x20000164)  returns 0x400 (0013ms, 0504ms total)
T2448 000:903 JLINK_WriteReg(R0, 0x08001800)  returns 0x00 (0000ms, 0504ms total)
T2448 000:903 JLINK_WriteReg(R1, 0x00000400)  returns 0x00 (0000ms, 0504ms total)
T2448 000:903 JLINK_WriteReg(R2, 0x20000164)  returns 0x00 (0000ms, 0504ms total)
T2448 000:903 JLINK_WriteReg(R3, 0x00000000)  returns 0x00 (0000ms, 0504ms total)
T2448 000:903 JLINK_WriteReg(R4, 0x00000000)  returns 0x00 (0000ms, 0504ms total)
T2448 000:903 JLINK_WriteReg(R5, 0x00000000)  returns 0x00 (0000ms, 0504ms total)
T2448 000:903 JLINK_WriteReg(R6, 0x00000000)  returns 0x00 (0000ms, 0504ms total)
T2448 000:903 JLINK_WriteReg(R7, 0x00000000)  returns 0x00 (0000ms, 0504ms total)
T2448 000:903 JLINK_WriteReg(R8, 0x00000000)  returns 0x00 (0000ms, 0504ms total)
T2448 000:903 JLINK_WriteReg(R9, 0x20000160)  returns 0x00 (0000ms, 0504ms total)
T2448 000:903 JLINK_WriteReg(R10, 0x00000000)  returns 0x00 (0000ms, 0504ms total)
T2448 000:903 JLINK_WriteReg(R11, 0x00000000)  returns 0x00 (0000ms, 0504ms total)
T2448 000:903 JLINK_WriteReg(R12, 0x00000000)  returns 0x00 (0000ms, 0504ms total)
T2448 000:903 JLINK_WriteReg(R13 (SP), 0x20000800)  returns 0x00 (0000ms, 0504ms total)
T2448 000:903 JLINK_WriteReg(R14, 0x20000001)  returns 0x00 (0001ms, 0505ms total)
T2448 000:904 JLINK_WriteReg(R15 (PC), 0x200000F4)  returns 0x00 (0000ms, 0505ms total)
T2448 000:904 JLINK_WriteReg(XPSR, 0x01000000)  returns 0x00 (0000ms, 0505ms total)
T2448 000:904 JLINK_WriteReg(MSP, 0x20000800)  returns 0x00 (0000ms, 0505ms total)
T2448 000:904 JLINK_WriteReg(PSP, 0x20000800)  returns 0x00 (0000ms, 0505ms total)
T2448 000:904 JLINK_WriteReg(CFBP, 0x00000000)  returns 0x00 (0000ms, 0505ms total)
T2448 000:904 JLINK_SetBPEx(Addr = 0x20000000, Type = 0xFFFFFFF2)  returns 0x0000000B (0000ms, 0505ms total)
T2448 000:904 JLINK_Go() (0002ms, 0507ms total)
T2448 000:906 JLINK_IsHalted()  returns FALSE (0001ms, 0508ms total)
T2448 000:910 JLINK_IsHalted()  returns FALSE (0000ms, 0507ms total)
T2448 000:911 JLINK_IsHalted()  returns FALSE (0001ms, 0508ms total)
T2448 000:913 JLINK_IsHalted()  returns FALSE (0000ms, 0507ms total)
T2448 000:915 JLINK_IsHalted()  returns FALSE (0000ms, 0507ms total)
T2448 000:916 JLINK_IsHalted()  returns FALSE (0001ms, 0508ms total)
T2448 000:918 JLINK_IsHalted()  returns FALSE (0000ms, 0507ms total)
T2448 000:919 JLINK_IsHalted()  returns FALSE (0001ms, 0508ms total)
T2448 000:921 JLINK_IsHalted()  returns FALSE (0000ms, 0507ms total)
T2448 000:922 JLINK_IsHalted()  returns FALSE (0000ms, 0507ms total)
T2448 000:923 JLINK_IsHalted()  returns FALSE (0001ms, 0508ms total)
T2448 000:925 JLINK_IsHalted()  returns FALSE (0000ms, 0507ms total)
T2448 000:927 JLINK_IsHalted()  returns FALSE (0001ms, 0508ms total)
T2448 000:929 JLINK_IsHalted()  returns FALSE (0000ms, 0507ms total)
T2448 000:930 JLINK_IsHalted()  returns FALSE (0001ms, 0508ms total)
T2448 000:932 JLINK_IsHalted()  returns FALSE (0000ms, 0507ms total)
T2448 000:937 JLINK_IsHalted() -- CPU_ReadMem(2 bytes @ 0x20000000)  returns TRUE (0005ms, 0512ms total)
T2448 000:942 JLINK_ReadReg(R15 (PC))  returns 0x20000000 (0000ms, 0507ms total)
T2448 000:942 JLINK_ClrBPEx(BPHandle = 0x0000000B)  returns 0x00 (0000ms, 0507ms total)
T2448 000:942 JLINK_ReadReg(R0)  returns 0x00000000 (0000ms, 0507ms total)
T2448 000:942 JLINK_WriteMem(0x20000164, 0x0400 Bytes, ...) -- Data:  FF F7 BA FF FF F7 AA FF 10 BD 30 B5 04 46 0D 46 ... -- CPU_WriteMem(1024 bytes @ 0x20000164)  returns 0x400 (0013ms, 0520ms total)
T2448 000:955 JLINK_WriteReg(R0, 0x08001C00)  returns 0x00 (0000ms, 0520ms total)
T2448 000:955 JLINK_WriteReg(R1, 0x00000400)  returns 0x00 (0000ms, 0520ms total)
T2448 000:955 JLINK_WriteReg(R2, 0x20000164)  returns 0x00 (0000ms, 0520ms total)
T2448 000:955 JLINK_WriteReg(R3, 0x00000000)  returns 0x00 (0000ms, 0520ms total)
T2448 000:955 JLINK_WriteReg(R4, 0x00000000)  returns 0x00 (0000ms, 0520ms total)
T2448 000:955 JLINK_WriteReg(R5, 0x00000000)  returns 0x00 (0000ms, 0520ms total)
T2448 000:955 JLINK_WriteReg(R6, 0x00000000)  returns 0x00 (0000ms, 0520ms total)
T2448 000:955 JLINK_WriteReg(R7, 0x00000000)  returns 0x00 (0000ms, 0520ms total)
T2448 000:955 JLINK_WriteReg(R8, 0x00000000)  returns 0x00 (0001ms, 0521ms total)
T2448 000:956 JLINK_WriteReg(R9, 0x20000160)  returns 0x00 (0000ms, 0521ms total)
T2448 000:956 JLINK_WriteReg(R10, 0x00000000)  returns 0x00 (0000ms, 0521ms total)
T2448 000:956 JLINK_WriteReg(R11, 0x00000000)  returns 0x00 (0000ms, 0521ms total)
T2448 000:956 JLINK_WriteReg(R12, 0x00000000)  returns 0x00 (0000ms, 0521ms total)
T2448 000:956 JLINK_WriteReg(R13 (SP), 0x20000800)  returns 0x00 (0000ms, 0521ms total)
T2448 000:956 JLINK_WriteReg(R14, 0x20000001)  returns 0x00 (0000ms, 0521ms total)
T2448 000:956 JLINK_WriteReg(R15 (PC), 0x200000F4)  returns 0x00 (0000ms, 0521ms total)
T2448 000:956 JLINK_WriteReg(XPSR, 0x01000000)  returns 0x00 (0000ms, 0521ms total)
T2448 000:956 JLINK_WriteReg(MSP, 0x20000800)  returns 0x00 (0000ms, 0521ms total)
T2448 000:956 JLINK_WriteReg(PSP, 0x20000800)  returns 0x00 (0000ms, 0521ms total)
T2448 000:956 JLINK_WriteReg(CFBP, 0x00000000)  returns 0x00 (0000ms, 0521ms total)
T2448 000:956 JLINK_SetBPEx(Addr = 0x20000000, Type = 0xFFFFFFF2)  returns 0x0000000C (0000ms, 0521ms total)
T2448 000:956 JLINK_Go() (0002ms, 0523ms total)
T2448 000:958 JLINK_IsHalted()  returns FALSE (0001ms, 0524ms total)
T2448 000:960 JLINK_IsHalted()  returns FALSE (0001ms, 0524ms total)
T2448 000:962 JLINK_IsHalted()  returns FALSE (0000ms, 0523ms total)
T2448 000:964 JLINK_IsHalted()  returns FALSE (0001ms, 0524ms total)
T2448 000:966 JLINK_IsHalted()  returns FALSE (0000ms, 0523ms total)
T2448 000:969 JLINK_IsHalted()  returns FALSE (0000ms, 0523ms total)
T2448 000:970 JLINK_IsHalted()  returns FALSE (0001ms, 0524ms total)
T2448 000:972 JLINK_IsHalted()  returns FALSE (0001ms, 0524ms total)
T2448 000:974 JLINK_IsHalted()  returns FALSE (0000ms, 0523ms total)
T2448 000:976 JLINK_IsHalted()  returns FALSE (0001ms, 0524ms total)
T2448 000:978 JLINK_IsHalted()  returns FALSE (0000ms, 0523ms total)
T2448 000:989 JLINK_IsHalted() -- CPU_ReadMem(2 bytes @ 0x20000000)  returns TRUE (0005ms, 0528ms total)
T2448 000:994 JLINK_ReadReg(R15 (PC))  returns 0x20000000 (0000ms, 0523ms total)
T2448 000:994 JLINK_ClrBPEx(BPHandle = 0x0000000C)  returns 0x00 (0000ms, 0523ms total)
T2448 000:994 JLINK_ReadReg(R0)  returns 0x00000000 (0000ms, 0523ms total)
T2448 000:994 JLINK_WriteMem(0x20000164, 0x0400 Bytes, ...) -- Data:  0B E0 59 46 4A 1C 1F FA 82 FB 1A F8 01 00 FF F7 ... -- CPU_WriteMem(1024 bytes @ 0x20000164)  returns 0x400 (0013ms, 0536ms total)
T2448 001:007 JLINK_WriteReg(R0, 0x08002000)  returns 0x00 (0001ms, 0537ms total)
T2448 001:008 JLINK_WriteReg(R1, 0x00000400)  returns 0x00 (0000ms, 0537ms total)
T2448 001:008 JLINK_WriteReg(R2, 0x20000164)  returns 0x00 (0000ms, 0537ms total)
T2448 001:008 JLINK_WriteReg(R3, 0x00000000)  returns 0x00 (0000ms, 0537ms total)
T2448 001:008 JLINK_WriteReg(R4, 0x00000000)  returns 0x00 (0000ms, 0537ms total)
T2448 001:008 JLINK_WriteReg(R5, 0x00000000)  returns 0x00 (0000ms, 0537ms total)
T2448 001:008 JLINK_WriteReg(R6, 0x00000000)  returns 0x00 (0000ms, 0537ms total)
T2448 001:008 JLINK_WriteReg(R7, 0x00000000)  returns 0x00 (0000ms, 0537ms total)
T2448 001:008 JLINK_WriteReg(R8, 0x00000000)  returns 0x00 (0000ms, 0537ms total)
T2448 001:008 JLINK_WriteReg(R9, 0x20000160)  returns 0x00 (0000ms, 0537ms total)
T2448 001:008 JLINK_WriteReg(R10, 0x00000000)  returns 0x00 (0000ms, 0537ms total)
T2448 001:008 JLINK_WriteReg(R11, 0x00000000)  returns 0x00 (0000ms, 0537ms total)
T2448 001:009 JLINK_WriteReg(R12, 0x00000000)  returns 0x00 (0000ms, 0537ms total)
T2448 001:009 JLINK_WriteReg(R13 (SP), 0x20000800)  returns 0x00 (0000ms, 0537ms total)
T2448 001:009 JLINK_WriteReg(R14, 0x20000001)  returns 0x00 (0000ms, 0537ms total)
T2448 001:009 JLINK_WriteReg(R15 (PC), 0x200000F4)  returns 0x00 (0000ms, 0537ms total)
T2448 001:009 JLINK_WriteReg(XPSR, 0x01000000)  returns 0x00 (0000ms, 0537ms total)
T2448 001:009 JLINK_WriteReg(MSP, 0x20000800)  returns 0x00 (0000ms, 0537ms total)
T2448 001:009 JLINK_WriteReg(PSP, 0x20000800)  returns 0x00 (0000ms, 0537ms total)
T2448 001:009 JLINK_WriteReg(CFBP, 0x00000000)  returns 0x00 (0000ms, 0537ms total)
T2448 001:009 JLINK_SetBPEx(Addr = 0x20000000, Type = 0xFFFFFFF2)  returns 0x0000000D (0000ms, 0537ms total)
T2448 001:009 JLINK_Go() (0002ms, 0539ms total)
T2448 001:011 JLINK_IsHalted()  returns FALSE (0001ms, 0540ms total)
T2448 001:013 JLINK_IsHalted()  returns FALSE (0000ms, 0539ms total)
T2448 001:014 JLINK_IsHalted()  returns FALSE (0000ms, 0539ms total)
T2448 001:015 JLINK_IsHalted()  returns FALSE (0001ms, 0540ms total)
T2448 001:017 JLINK_IsHalted()  returns FALSE (0000ms, 0539ms total)
T2448 001:018 JLINK_IsHalted()  returns FALSE (0000ms, 0539ms total)
T2448 001:020 JLINK_IsHalted()  returns FALSE (0000ms, 0539ms total)
T2448 001:021 JLINK_IsHalted()  returns FALSE (0000ms, 0539ms total)
T2448 001:022 JLINK_IsHalted()  returns FALSE (0001ms, 0540ms total)
T2448 001:024 JLINK_IsHalted()  returns FALSE (0001ms, 0540ms total)
T2448 001:026 JLINK_IsHalted()  returns FALSE (0000ms, 0539ms total)
T2448 001:027 JLINK_IsHalted()  returns FALSE (0001ms, 0540ms total)
T2448 001:029 JLINK_IsHalted()  returns FALSE (0001ms, 0540ms total)
T2448 001:031 JLINK_IsHalted()  returns FALSE (0000ms, 0539ms total)
T2448 001:032 JLINK_IsHalted()  returns FALSE (0000ms, 0539ms total)
T2448 001:033 JLINK_IsHalted()  returns FALSE (0001ms, 0540ms total)
T2448 001:035 JLINK_IsHalted()  returns FALSE (0001ms, 0540ms total)
T2448 001:037 JLINK_IsHalted()  returns FALSE (0000ms, 0539ms total)
T2448 001:038 JLINK_IsHalted()  returns FALSE (0001ms, 0540ms total)
T2448 001:040 JLINK_IsHalted()  returns FALSE (0000ms, 0539ms total)
T2448 001:041 JLINK_IsHalted()  returns FALSE (0001ms, 0540ms total)
T2448 001:043 JLINK_IsHalted() -- CPU_ReadMem(2 bytes @ 0x20000000)  returns TRUE (0005ms, 0544ms total)
T2448 001:048 JLINK_ReadReg(R15 (PC))  returns 0x20000000 (0000ms, 0539ms total)
T2448 001:048 JLINK_ClrBPEx(BPHandle = 0x0000000D)  returns 0x00 (0000ms, 0539ms total)
T2448 001:048 JLINK_ReadReg(R0)  returns 0x00000000 (0000ms, 0539ms total)
T2448 001:049 JLINK_WriteMem(0x20000164, 0x0400 Bytes, ...) -- Data:  15 F9 13 90 29 48 01 68 13 98 04 F0 2B FF 27 49 ... -- CPU_WriteMem(1024 bytes @ 0x20000164)  returns 0x400 (0012ms, 0551ms total)
T2448 001:061 JLINK_WriteReg(R0, 0x08002400)  returns 0x00 (0000ms, 0551ms total)
T2448 001:061 JLINK_WriteReg(R1, 0x00000400)  returns 0x00 (0000ms, 0551ms total)
T2448 001:061 JLINK_WriteReg(R2, 0x20000164)  returns 0x00 (0000ms, 0551ms total)
T2448 001:061 JLINK_WriteReg(R3, 0x00000000)  returns 0x00 (0000ms, 0551ms total)
T2448 001:061 JLINK_WriteReg(R4, 0x00000000)  returns 0x00 (0000ms, 0551ms total)
T2448 001:061 JLINK_WriteReg(R5, 0x00000000)  returns 0x00 (0001ms, 0552ms total)
T2448 001:062 JLINK_WriteReg(R6, 0x00000000)  returns 0x00 (0000ms, 0552ms total)
T2448 001:062 JLINK_WriteReg(R7, 0x00000000)  returns 0x00 (0000ms, 0552ms total)
T2448 001:062 JLINK_WriteReg(R8, 0x00000000)  returns 0x00 (0000ms, 0552ms total)
T2448 001:062 JLINK_WriteReg(R9, 0x20000160)  returns 0x00 (0000ms, 0552ms total)
T2448 001:062 JLINK_WriteReg(R10, 0x00000000)  returns 0x00 (0000ms, 0552ms total)
T2448 001:062 JLINK_WriteReg(R11, 0x00000000)  returns 0x00 (0000ms, 0552ms total)
T2448 001:062 JLINK_WriteReg(R12, 0x00000000)  returns 0x00 (0000ms, 0552ms total)
T2448 001:062 JLINK_WriteReg(R13 (SP), 0x20000800)  returns 0x00 (0000ms, 0552ms total)
T2448 001:062 JLINK_WriteReg(R14, 0x20000001)  returns 0x00 (0000ms, 0552ms total)
T2448 001:062 JLINK_WriteReg(R15 (PC), 0x200000F4)  returns 0x00 (0000ms, 0552ms total)
T2448 001:062 JLINK_WriteReg(XPSR, 0x01000000)  returns 0x00 (0000ms, 0552ms total)
T2448 001:062 JLINK_WriteReg(MSP, 0x20000800)  returns 0x00 (0000ms, 0552ms total)
T2448 001:062 JLINK_WriteReg(PSP, 0x20000800)  returns 0x00 (0000ms, 0552ms total)
T2448 001:062 JLINK_WriteReg(CFBP, 0x00000000)  returns 0x00 (0000ms, 0552ms total)
T2448 001:062 JLINK_SetBPEx(Addr = 0x20000000, Type = 0xFFFFFFF2)  returns 0x0000000E (0000ms, 0552ms total)
T2448 001:062 JLINK_Go() (0003ms, 0555ms total)
T2448 001:065 JLINK_IsHalted()  returns FALSE (0001ms, 0556ms total)
T2448 001:070 JLINK_IsHalted()  returns FALSE (0001ms, 0556ms total)
T2448 001:072 JLINK_IsHalted()  returns FALSE (0000ms, 0555ms total)
T2448 001:073 JLINK_IsHalted()  returns FALSE (0001ms, 0556ms total)
T2448 001:079 JLINK_IsHalted()  returns FALSE (0000ms, 0555ms total)
T2448 001:080 JLINK_IsHalted()  returns FALSE (0000ms, 0555ms total)
T2448 001:081 JLINK_IsHalted()  returns FALSE (0000ms, 0555ms total)
T2448 001:082 JLINK_IsHalted()  returns FALSE (0000ms, 0555ms total)
T2448 001:083 JLINK_IsHalted()  returns FALSE (0000ms, 0555ms total)
T2448 001:084 JLINK_IsHalted()  returns FALSE (0000ms, 0555ms total)
T2448 001:085 JLINK_IsHalted()  returns FALSE (0000ms, 0555ms total)
T2448 001:086 JLINK_IsHalted()  returns FALSE (0000ms, 0555ms total)
T2448 001:087 JLINK_IsHalted()  returns FALSE (0000ms, 0555ms total)
T2448 001:088 JLINK_IsHalted()  returns FALSE (0000ms, 0555ms total)
T2448 001:089 JLINK_IsHalted()  returns FALSE (0000ms, 0555ms total)
T2448 001:090 JLINK_IsHalted()  returns FALSE (0000ms, 0555ms total)
